Freq.	V(n003)
5.00000000000000e+03,1.99985483207702e+01,-8.37342045287552e-01
5.02307895139198e+03,1.99985406514328e+01,-8.41206574843858e-01
5.04626443038342e+03,1.99985329111455e+01,-8.45088935780366e-01
5.06955692868340e+03,1.99985250992521e+01,-8.48989210312898e-01
5.09295694027059e+03,1.99985172150903e+01,-8.52907481035509e-01
5.11646496140377e+03,1.99985092579916e+01,-8.56843830922229e-01
5.14008149063237e+03,1.99985012272815e+01,-8.60798343328782e-01
5.16380702880699e+03,1.99984931222791e+01,-8.64771101994344e-01
5.18764207909007e+03,1.99984849422972e+01,-8.68762191043290e-01
5.21158714696652e+03,1.99984766866425e+01,-8.72771694986950e-01
5.23564274025450e+03,1.99984683546149e+01,-8.76799698725381e-01
5.25980936911612e+03,1.99984599455081e+01,-8.80846287549141e-01
5.28408754606830e+03,1.99984514586091e+01,-8.84911547141074e-01
5.30847778599363e+03,1.99984428931986e+01,-8.88995563578097e-01
5.33298060615129e+03,1.99984342485503e+01,-8.93098423333006e-01
5.35759652618804e+03,1.99984255239314e+01,-8.97220213276271e-01
5.38232606814918e+03,1.99984167186022e+01,-9.01361020677866e-01
5.40716975648969e+03,1.99984078318163e+01,-9.05520933209086e-01
5.43212811808533e+03,1.99983988628202e+01,-9.09700038944376e-01
5.45720168224379e+03,1.99983898108537e+01,-9.13898426363174e-01
5.48239098071593e+03,1.99983806751494e+01,-9.18116184351757e-01
5.50769654770708e+03,1.99983714549329e+01,-9.22353402205098e-01
5.53311891988834e+03,1.99983621494224e+01,-9.26610169628736e-01
5.55865863640796e+03,1.99983527578291e+01,-9.30886576740638e-01
5.58431623890281e+03,1.99983432793570e+01,-9.35182714073087e-01
5.61009227150982e+03,1.99983337132024e+01,-9.39498672574569e-01
5.63598728087756e+03,1.99983240585546e+01,-9.43834543611674e-01
5.66200181617779e+03,1.99983143145950e+01,-9.48190418971000e-01
5.68813642911716e+03,1.99983044804976e+01,-9.52566390861068e-01
5.71439167394887e+03,1.99982945554289e+01,-9.56962551914241e-01
5.74076810748442e+03,1.99982845385475e+01,-9.61378995188665e-01
5.76726628910547e+03,1.99982744290043e+01,-9.65815814170202e-01
5.79388678077564e+03,1.99982642259423e+01,-9.70273102774380e-01
5.82063014705246e+03,1.99982539284967e+01,-9.74750955348352e-01
5.84749695509936e+03,1.99982435357946e+01,-9.79249466672872e-01
5.87448777469766e+03,1.99982330469550e+01,-9.83768731964244e-01
5.90160317825866e+03,1.99982224610889e+01,-9.88308846876334e-01
5.92884374083581e+03,1.99982117772989e+01,-9.92869907502544e-01
5.95621004013688e+03,1.99982009946795e+01,-9.97452010377823e-01
5.98370265653623e+03,1.99981901123168e+01,-1.00205525248067e+00
6.01132217308708e+03,1.99981791292882e+01,-1.00667973123517e+00
6.03906917553391e+03,1.99981680446628e+01,-1.01132554451300e+00
6.06694425232490e+03,1.99981568575012e+01,-1.01599279063547e+00
6.09494799462435e+03,1.99981455668551e+01,-1.02068156837558e+00
6.12308099632526e+03,1.99981341717674e+01,-1.02539197696007e+00
6.15134385406192e+03,1.99981226712724e+01,-1.03012411607148e+00
6.17973716722257e+03,1.99981110643953e+01,-1.03487808585024e+00
6.20826153796207e+03,1.99980993501523e+01,-1.03965398689672e+00
6.23691757121473e+03,1.99980875275505e+01,-1.04445192027336e+00
6.26570587470710e+03,1.99980755955880e+01,-1.04927198750673e+00
6.29462705897085e+03,1.99980635532534e+01,-1.05411429058968e+00
6.32368173735578e+03,1.99980513995260e+01,-1.05897893198343e+00
6.35287052604273e+03,1.99980391333758e+01,-1.06386601461972e+00
6.38219404405674e+03,1.99980267537632e+01,-1.06877564190293e+00
6.41165291328013e+03,1.99980142596391e+01,-1.07370791771222e+00
6.44124775846569e+03,1.99980016499443e+01,-1.07866294640374e+00
6.47097920724995e+03,1.99979889236104e+01,-1.08364083281273e+00
6.50084789016647e+03,1.99979760795587e+01,-1.08864168225572e+00
6.53085444065923e+03,1.99979631167007e+01,-1.09366560053274e+00
6.56099949509604e+03,1.99979500339378e+01,-1.09871269392948e+00
6.59128369278206e+03,1.99979368301612e+01,-1.10378306921951e+00
6.62170767597335e+03,1.99979235042521e+01,-1.10887683366650e+00
6.65227208989048e+03,1.99979100550809e+01,-1.11399409502643e+00
6.68297758273224e+03,1.99978964815081e+01,-1.11913496154982e+00
6.71382480568934e+03,1.99978827823832e+01,-1.12429954198402e+00
6.74481441295829e+03,1.99978689565454e+01,-1.12948794557540e+00
6.77594706175521e+03,1.99978550028230e+01,-1.13470028207163e+00
6.80722341232978e+03,1.99978409200336e+01,-1.13993666172399e+00
6.83864412797927e+03,1.99978267069836e+01,-1.14519719528962e+00
6.87020987506260e+03,1.99978123624688e+01,-1.15048199403380e+00
6.90192132301445e+03,1.99977978852735e+01,-1.15579116973230e+00
6.93377914435947e+03,1.99977832741709e+01,-1.16112483467364e+00
6.96578401472655e+03,1.99977685279230e+01,-1.16648310166146e+00
6.99793661286312e+03,1.99977536452801e+01,-1.17186608401681e+00
7.03023762064960e+03,1.99977386249812e+01,-1.17727389558054e+00
7.06268772311380e+03,1.99977234657535e+01,-1.18270665071560e+00
7.09528760844549e+03,1.99977081663124e+01,-1.18816446430945e+00
7.12803796801097e+03,1.99976927253616e+01,-1.19364745177641e+00
7.16093949636775e+03,1.99976771415927e+01,-1.19915572906004e+00
7.19399289127926e+03,1.99976614136852e+01,-1.20468941263557e+00
7.22719885372967e+03,1.99976455403066e+01,-1.21024861951225e+00
7.26055808793875e+03,1.99976295201118e+01,-1.21583346723582e+00
7.29407130137678e+03,1.99976133517434e+01,-1.22144407389089e+00
7.32773920477959e+03,1.99975970338316e+01,-1.22708055810340e+00
7.36156251216363e+03,1.99975805649938e+01,-1.23274303904308e+00
7.39554194084107e+03,1.99975639438345e+01,-1.23843163642587e+00
7.42967821143507e+03,1.99975471689456e+01,-1.24414647051643e+00
7.46397204789502e+03,1.99975302389057e+01,-1.24988766213057e+00
7.49842417751191e+03,1.99975131522806e+01,-1.25565533263780e+00
7.53303533093375e+03,1.99974959076226e+01,-1.26144960396377e+00
7.56780624218108e+03,1.99974785034706e+01,-1.26727059859283e+00
7.60273764866252e+03,1.99974609383503e+01,-1.27311843957051e+00
7.63783029119040e+03,1.99974432107734e+01,-1.27899325050610e+00
7.67308491399651e+03,1.99974253192380e+01,-1.28489515557513e+00
7.70850226474784e+03,1.99974072622286e+01,-1.29082427952199e+00
7.74408309456245e+03,1.99973890382153e+01,-1.29678074766245e+00
7.77982815802542e+03,1.99973706456542e+01,-1.30276468588626e+00
7.81573821320481e+03,1.99973520829873e+01,-1.30877622065973e+00
7.85181402166781e+03,1.99973333486421e+01,-1.31481547902832e+00
7.88805634849679e+03,1.99973144410314e+01,-1.32088258861927e+00
7.92446596230561e+03,1.99972953585536e+01,-1.32697767764420e+00
7.96104363525590e+03,1.99972760995923e+01,-1.33310087490176e+00
7.99779014307339e+03,1.99972566625159e+01,-1.33925230978024e+00
8.03470626506443e+03,1.99972370456781e+01,-1.34543211226028e+00
8.07179278413248e+03,1.99972172474171e+01,-1.35164041291748e+00
8.10905048679470e+03,1.99971972660559e+01,-1.35787734292511e+00
8.14648016319866e+03,1.99971770999021e+01,-1.36414303405680e+00
8.18408260713909e+03,1.99971567472473e+01,-1.37043761868921e+00
8.22185861607471e+03,1.99971362063678e+01,-1.37676122980477e+00
8.25980899114513e+03,1.99971154755237e+01,-1.38311400099441e+00
8.29793453718786e+03,1.99970945529591e+01,-1.38949606646025e+00
8.33623606275537e+03,1.99970734369018e+01,-1.39590756101840e+00
8.37471438013224e+03,1.99970521255634e+01,-1.40234862010168e+00
8.41337030535239e+03,1.99970306171390e+01,-1.40881937976239e+00
8.45220465821638e+03,1.99970089098067e+01,-1.41531997667515e+00
8.49121826230878e+03,1.99969870017282e+01,-1.42185054813959e+00
8.53041194501568e+03,1.99969648910480e+01,-1.42841123208325e+00
8.56978653754219e+03,1.99969425758936e+01,-1.43500216706433e+00
8.60934287493009e+03,1.99969200543750e+01,-1.44162349227458e+00
8.64908179607557e+03,1.99968973245849e+01,-1.44827534754207e+00
8.68900414374694e+03,1.99968743845984e+01,-1.45495787333410e+00
8.72911076460258e+03,1.99968512324729e+01,-1.46167121076005e+00
8.76940250920887e+03,1.99968278662476e+01,-1.46841550157423e+00
8.80988023205821e+03,1.99968042839438e+01,-1.47519088817880e+00
8.85054479158717e+03,1.99967804835646e+01,-1.48199751362665e+00
8.89139705019468e+03,1.99967564630945e+01,-1.48883552162432e+00
8.93243787426032e+03,1.99967322204995e+01,-1.49570505653494e+00
8.97366813416270e+03,1.99967077537268e+01,-1.50260626338115e+00
9.01508870429791e+03,1.99966830607045e+01,-1.50953928784803e+00
9.05670046309808e+03,1.99966581393419e+01,-1.51650427628612e+00
9.09850429304999e+03,1.99966329875287e+01,-1.52350137571430e+00
9.14050108071378e+03,1.99966076031353e+01,-1.53053073382291e+00
9.18269171674180e+03,1.99965819840124e+01,-1.53759249897662e+00
9.22507709589744e+03,1.99965561279908e+01,-1.54468682021749e+00
9.26765811707413e+03,1.99965300328813e+01,-1.55181384726803e+00
9.31043568331441e+03,1.99965036964747e+01,-1.55897373053419e+00
9.35341070182908e+03,1.99964771165410e+01,-1.56616662110840e+00
9.39658408401642e+03,1.99964502908300e+01,-1.57339267077268e+00
9.43995674548154e+03,1.99964232170706e+01,-1.58065203200169e+00
9.48352960605581e+03,1.99963958929706e+01,-1.58794485796579e+00
9.52730358981631e+03,1.99963683162170e+01,-1.59527130253418e+00
9.57127962510551e+03,1.99963404844751e+01,-1.60263152027800e+00
9.61545864455087e+03,1.99963123953888e+01,-1.61002566647343e+00
9.65984158508470e+03,1.99962840465803e+01,-1.61745389710488e+00
9.70442938796397e+03,1.99962554356497e+01,-1.62491636886806e+00
9.74922299879031e+03,1.99962265601753e+01,-1.63241323917325e+00
9.79422336753003e+03,1.99961974177127e+01,-1.63994466614838e+00
9.83943144853431e+03,1.99961680057950e+01,-1.64751080864227e+00
9.88484820055939e+03,1.99961383219328e+01,-1.65511182622781e+00
9.93047458678694e+03,1.99961083636134e+01,-1.66274787920521e+00
9.97631157484449e+03,1.99960781283011e+01,-1.67041912860519e+00
1.00223601368259e+04,1.99960476134369e+01,-1.67812573619222e+00
1.00686212493120e+04,1.99960168164379e+01,-1.68586786446784e+00
1.01150958933914e+04,1.99959857346977e+01,-1.69364567667382e+00
1.01617850546812e+04,1.99959543655856e+01,-1.70145933679554e+00
1.02086897233477e+04,1.99959227064468e+01,-1.70930900956524e+00
1.02558108941279e+04,1.99958907546019e+01,-1.71719486046532e+00
1.03031495663501e+04,1.99958585073470e+01,-1.72511705573168e+00
1.03507067439553e+04,1.99958259619528e+01,-1.73307576235706e+00
1.03984834355186e+04,1.99957931156655e+01,-1.74107114809436e+00
1.04464806542703e+04,1.99957599657052e+01,-1.74910338146003e+00
1.04946994181177e+04,1.99957265092669e+01,-1.75717263173744e+00
1.05431407496665e+04,1.99956927435194e+01,-1.76527906898024e+00
1.05918056762426e+04,1.99956586656056e+01,-1.77342286401581e+00
1.06406952299137e+04,1.99956242726420e+01,-1.78160418844862e+00
1.06898104475113e+04,1.99955895617183e+01,-1.78982321466371e+00
1.07391523706528e+04,1.99955545298978e+01,-1.79808011583010e+00
1.07887220457634e+04,1.99955191742163e+01,-1.80637506590428e+00
1.08385205240986e+04,1.99954834916824e+01,-1.81470823963362e+00
1.08885488617659e+04,1.99954474792773e+01,-1.82307981255993e+00
1.09388081197479e+04,1.99954111339541e+01,-1.83148996102290e+00
1.09892993639242e+04,1.99953744526380e+01,-1.83993886216362e+00
1.10400236650946e+04,1.99953374322258e+01,-1.84842669392815e+00
1.10909820990012e+04,1.99953000695856e+01,-1.85695363507099e+00
1.11421757463516e+04,1.99952623615568e+01,-1.86551986515869e+00
1.11936056928418e+04,1.99952243049494e+01,-1.87412556457340e+00
1.12452730291790e+04,1.99951858965444e+01,-1.88277091451643e+00
1.12971788511050e+04,1.99951471330927e+01,-1.89145609701186e+00
1.13493242594192e+04,1.99951080113155e+01,-1.90018129491018e+00
1.14017103600022e+04,1.99950685279038e+01,-1.90894669189184e+00
1.14543382638390e+04,1.99950286795179e+01,-1.91775247247098e+00
1.15072090870427e+04,1.99949884627875e+01,-1.92659882199898e+00
1.15603239508781e+04,1.99949478743112e+01,-1.93548592666823e+00
1.16136839817857e+04,1.99949069106563e+01,-1.94441397351572e+00
1.16672903114051e+04,1.99948655683583e+01,-1.95338315042679e+00
1.17211440765997e+04,1.99948238439209e+01,-1.96239364613880e+00
1.17752464194802e+04,1.99947817338157e+01,-1.97144565024489e+00
1.18295984874289e+04,1.99947392344815e+01,-1.98053935319769e+00
1.18842014331245e+04,1.99946963423244e+01,-1.98967494631308e+00
1.19390564145660e+04,1.99946530537176e+01,-1.99885262177394e+00
1.19941645950976e+04,1.99946093650006e+01,-2.00807257263397e+00
1.20495271434331e+04,1.99945652724794e+01,-2.01733499282144e+00
1.21051452336810e+04,1.99945207724257e+01,-2.02664007714301e+00
1.21610200453692e+04,1.99944758610772e+01,-2.03598802128755e+00
1.22171527634700e+04,1.99944305346366e+01,-2.04537902183003e+00
1.22735445784253e+04,1.99943847892719e+01,-2.05481327623526e+00
1.23301966861718e+04,1.99943386211156e+01,-2.06429098286187e+00
1.23871102881666e+04,1.99942920262647e+01,-2.07381234096613e+00
1.24442865914121e+04,1.99942450007803e+01,-2.08337755070586e+00
1.25017268084823e+04,1.99941975406870e+01,-2.09298681314431e+00
1.25594321575480e+04,1.99941496419730e+01,-2.10264033025414e+00
1.26174038624030e+04,1.99941013005895e+01,-2.11233830492133e+00
1.26756431524897e+04,1.99940525124504e+01,-2.12208094094912e+00
1.27341512629254e+04,1.99940032734320e+01,-2.13186844306200e+00
1.27929294345284e+04,1.99939535793725e+01,-2.14170101690967e+00
1.28519789138445e+04,1.99939034260720e+01,-2.15157886907108e+00
1.29113009531731e+04,1.99938528092918e+01,-2.16150220705837e+00
1.29708968105942e+04,1.99938017247543e+01,-2.17147123932098e+00
1.30307677499946e+04,1.99937501681422e+01,-2.18148617524963e+00
1.30909150410951e+04,1.99936981350988e+01,-2.19154722518039e+00
1.31513399594771e+04,1.99936456212273e+01,-2.20165460039878e+00
1.32120437866099e+04,1.99935926220901e+01,-2.21180851314383e+00
1.32730278098779e+04,1.99935391332090e+01,-2.22200917661215e+00
1.33342933226076e+04,1.99934851500647e+01,-2.23225680496213e+00
1.33958416240953e+04,1.99934306680959e+01,-2.24255161331797e+00
1.34576740196347e+04,1.99933756826998e+01,-2.25289381777391e+00
1.35197918205444e+04,1.99933201892309e+01,-2.26328363539833e+00
1.35821963441956e+04,1.99932641830012e+01,-2.27372128423797e+00
1.36448889140404e+04,1.99932076592792e+01,-2.28420698332206e+00
1.37078708596396e+04,1.99931506132903e+01,-2.29474095266659e+00
1.37711435166910e+04,1.99930930402158e+01,-2.30532341327849e+00
1.38347082270577e+04,1.99930349351925e+01,-2.31595458715987e+00
1.38985663387966e+04,1.99929762933126e+01,-2.32663469731228e+00
1.39627192061869e+04,1.99929171096233e+01,-2.33736396774095e+00
1.40271681897587e+04,1.99928573791259e+01,-2.34814262345909e+00
1.40919146563224e+04,1.99927970967761e+01,-2.35897089049218e+00
1.41569599789971e+04,1.99927362574830e+01,-2.36984899588225e+00
1.42223055372398e+04,1.99926748561088e+01,-2.38077716769227e+00
1.42879527168749e+04,1.99926128874687e+01,-2.39175563501041e+00
1.43539029101236e+04,1.99925503463299e+01,-2.40278462795442e+00
1.44201575156332e+04,1.99924872274118e+01,-2.41386437767603e+00
1.44867179385068e+04,1.99924235253850e+01,-2.42499511636528e+00
1.45535855903332e+04,1.99923592348713e+01,-2.43617707725497e+00
1.46207618892169e+04,1.99922943504429e+01,-2.44741049462503e+00
1.46882482598078e+04,1.99922288666221e+01,-2.45869560380695e+00
1.47560461333321e+04,1.99921627778811e+01,-2.47003264118825e+00
1.48241569476219e+04,1.99920960786409e+01,-2.48142184421692e+00
1.48925821471461e+04,1.99920287632715e+01,-2.49286345140587e+00
1.49613231830411e+04,1.99919608260910e+01,-2.50435770233746e+00
1.50303815131414e+04,1.99918922613655e+01,-2.51590483766797e+00
1.50997586020103e+04,1.99918230633080e+01,-2.52750509913211e+00
1.51694559209716e+04,1.99917532260788e+01,-2.53915872954759e+00
1.52394749481401e+04,1.99916827437843e+01,-2.55086597281960e+00
1.53098171684536e+04,1.99916116104766e+01,-2.56262707394545e+00
1.53804840737038e+04,1.99915398201535e+01,-2.57444227901907e+00
1.54514771625682e+04,1.99914673667574e+01,-2.58631183523564e+00
1.55227979406420e+04,1.99913942441751e+01,-2.59823599089621e+00
1.55944479204699e+04,1.99913204462373e+01,-2.61021499541226e+00
1.56664286215781e+04,1.99912459667180e+01,-2.62224909931038e+00
1.57387415705068e+04,1.99911707993341e+01,-2.63433855423691e+00
1.58113883008421e+04,1.99910949377447e+01,-2.64648361296261e+00
1.58843703532491e+04,1.99910183755507e+01,-2.65868452938728e+00
1.59576892755040e+04,1.99909411062942e+01,-2.67094155854456e+00
1.60313466225276e+04,1.99908631234580e+01,-2.68325495660651e+00
1.61053439564174e+04,1.99907844204653e+01,-2.69562498088845e+00
1.61796828464816e+04,1.99907049906785e+01,-2.70805188985358e+00
1.62543648692720e+04,1.99906248273994e+01,-2.72053594311784e+00
1.63293916086170e+04,1.99905439238683e+01,-2.73307740145458e+00
1.64047646556562e+04,1.99904622732632e+01,-2.74567652679942e+00
1.64804856088731e+04,1.99903798686998e+01,-2.75833358225496e+00
1.65565560741298e+04,1.99902967032304e+01,-2.77104883209565e+00
1.66329776647005e+04,1.99902127698436e+01,-2.78382254177258e+00
1.67097520013060e+04,1.99901280614638e+01,-2.79665497791835e+00
1.67868807121480e+04,1.99900425709504e+01,-2.80954640835185e+00
1.68643654329437e+04,1.99899562910970e+01,-2.82249710208320e+00
1.69422078069604e+04,1.99898692146317e+01,-2.83550732931858e+00
1.70204094850503e+04,1.99897813342153e+01,-2.84857736146513e+00
1.70989721256857e+04,1.99896926424416e+01,-2.86170747113587e+00
1.71778973949940e+04,1.99896031318365e+01,-2.87489793215462e+00
1.72571869667931e+04,1.99895127948572e+01,-2.88814901956089e+00
1.73368425226268e+04,1.99894216238918e+01,-2.90146100961489e+00
1.74168657518009e+04,1.99893296112586e+01,-2.91483417980244e+00
1.74972583514181e+04,1.99892367492055e+01,-2.92826880883997e+00
1.75780220264152e+04,1.99891430299093e+01,-2.94176517667950e+00
1.76591584895981e+04,1.99890484454752e+01,-2.95532356451364e+00
1.77406694616791e+04,1.99889529879358e+01,-2.96894425478061e+00
1.78225566713125e+04,1.99888566492508e+01,-2.98262753116927e+00
1.79048218551321e+04,1.99887594213064e+01,-2.99637367862415e+00
1.79874667577874e+04,1.99886612959142e+01,-3.01018298335050e+00
1.80704931319810e+04,1.99885622648108e+01,-3.02405573281939e+00
1.81539027385054e+04,1.99884623196573e+01,-3.03799221577276e+00
1.82376973462807e+04,1.99883614520380e+01,-3.05199272222851e+00
1.83218787323920e+04,1.99882596534606e+01,-3.06605754348564e+00
1.84064486821269e+04,1.99881569153548e+01,-3.08018697212934e+00
1.84914089890136e+04,1.99880532290716e+01,-3.09438130203614e+00
1.85767614548589e+04,1.99879485858831e+01,-3.10864082837902e+00
1.86625078897863e+04,1.99878429769813e+01,-3.12296584763264e+00
1.87486501122745e+04,1.99877363934778e+01,-3.13735665757843e+00
1.88351899491958e+04,1.99876288264025e+01,-3.15181355730982e+00
1.89221292358550e+04,1.99875202667034e+01,-3.16633684723742e+00
1.90094698160284e+04,1.99874107052457e+01,-3.18092682909423e+00
1.90972135420026e+04,1.99873001328106e+01,-3.19558380594086e+00
1.91853622746143e+04,1.99871885400955e+01,-3.21030808217077e+00
1.92739178832889e+04,1.99870759177124e+01,-3.22509996351547e+00
1.93628822460812e+04,1.99869622561872e+01,-3.23995975704986e+00
1.94522572497144e+04,1.99868475459595e+01,-3.25488777119740e+00
1.95420447896204e+04,1.99867317773813e+01,-3.26988431573545e+00
1.96322467699803e+04,1.99866149407163e+01,-3.28494970180055e+00
1.97228651037643e+04,1.99864970261392e+01,-3.30008424189369e+00
1.98139017127723e+04,1.99863780237348e+01,-3.31528824988566e+00
1.99053585276752e+04,1.99862579234974e+01,-3.33056204102236e+00
1.99972374880552e+04,1.99861367153297e+01,-3.34590593193013e+00
2.00895405424474e+04,1.99860143890421e+01,-3.36132024062110e+00
2.01822696483806e+04,1.99858909343519e+01,-3.37680528649852e+00
2.02754267724196e+04,1.99857663408823e+01,-3.39236139036218e+00
2.03690138902060e+04,1.99856405981619e+01,-3.40798887441373e+00
2.04630329865009e+04,1.99855136956235e+01,-3.42368806226209e+00
2.05574860552265e+04,1.99853856226033e+01,-3.43945927892887e+00
2.06523750995084e+04,1.99852563683401e+01,-3.45530285085374e+00
2.07477021317185e+04,1.99851259219746e+01,-3.47121910589985e+00
2.08434691735172e+04,1.99849942725480e+01,-3.48720837335927e+00
2.09396782558963e+04,1.99848614090018e+01,-3.50327098395844e+00
