Freq.	V(n003)
5.00000000000000e+03,1.39791245600017e+01,-8.31202095063414e-02
5.02307895139198e+03,1.39791245660423e+01,-8.35038752903998e-02
5.04626443038342e+03,1.39791245721387e+01,-8.38893119998309e-02
5.06955692868340e+03,1.39791245782916e+01,-8.42765278089203e-02
5.09295694027059e+03,1.39791245845015e+01,-8.46655309296836e-02
5.11646496140377e+03,1.39791245907687e+01,-8.50563296120426e-02
5.14008149063237e+03,1.39791245970940e+01,-8.54489321439970e-02
5.16380702880699e+03,1.39791246034778e+01,-8.58433468518082e-02
5.18764207909007e+03,1.39791246099207e+01,-8.62395821001659e-02
5.21158714696652e+03,1.39791246164231e+01,-8.66376462923731e-02
5.23564274025450e+03,1.39791246229858e+01,-8.70375478705228e-02
5.25980936911612e+03,1.39791246296091e+01,-8.74392953156736e-02
5.28408754606830e+03,1.39791246362938e+01,-8.78428971480319e-02
5.30847778599363e+03,1.39791246430403e+01,-8.82483619271340e-02
5.33298060615129e+03,1.39791246498492e+01,-8.86556982520249e-02
5.35759652618804e+03,1.39791246567211e+01,-8.90649147614433e-02
5.38232606814918e+03,1.39791246636566e+01,-8.94760201340023e-02
5.40716975648969e+03,1.39791246706563e+01,-8.98890230883742e-02
5.43212811808533e+03,1.39791246777208e+01,-9.03039323834799e-02
5.45720168224379e+03,1.39791246848506e+01,-9.07207568186661e-02
5.48239098071593e+03,1.39791246920463e+01,-9.11395052338972e-02
5.50769654770708e+03,1.39791246993087e+01,-9.15601865099457e-02
5.53311891988834e+03,1.39791247066383e+01,-9.19828095685728e-02
5.55865863640796e+03,1.39791247140356e+01,-9.24073833727245e-02
5.58431623890281e+03,1.39791247215015e+01,-9.28339169267180e-02
5.61009227150982e+03,1.39791247290364e+01,-9.32624192764345e-02
5.63598728087756e+03,1.39791247366410e+01,-9.36928995095077e-02
5.66200181617779e+03,1.39791247443159e+01,-9.41253667555224e-02
5.68813642911716e+03,1.39791247520619e+01,-9.45598301862031e-02
5.71439167394887e+03,1.39791247598796e+01,-9.49962990156126e-02
5.74076810748442e+03,1.39791247677696e+01,-9.54347825003415e-02
5.76726628910547e+03,1.39791247757326e+01,-9.58752899397094e-02
5.79388678077564e+03,1.39791247837693e+01,-9.63178306759635e-02
5.82063014705246e+03,1.39791247918803e+01,-9.67624140944704e-02
5.84749695509936e+03,1.39791248000664e+01,-9.72090496239210e-02
5.87448777469766e+03,1.39791248083283e+01,-9.76577467365301e-02
5.90160317825866e+03,1.39791248166665e+01,-9.81085149482322e-02
5.92884374083581e+03,1.39791248250820e+01,-9.85613638188859e-02
5.95621004013688e+03,1.39791248335753e+01,-9.90163029524859e-02
5.98370265653623e+03,1.39791248421472e+01,-9.94733419973470e-02
6.01132217308708e+03,1.39791248507983e+01,-9.99324906463264e-02
6.03906917553391e+03,1.39791248595296e+01,-1.00393758637023e-01
6.06694425232490e+03,1.39791248683416e+01,-1.00857155751982e-01
6.09494799462435e+03,1.39791248772352e+01,-1.01322691818905e-01
6.12308099632526e+03,1.39791248862110e+01,-1.01790376710860e-01
6.15134385406192e+03,1.39791248952699e+01,-1.02260220346483e-01
6.17973716722257e+03,1.39791249044127e+01,-1.02732232690200e-01
6.20826153796207e+03,1.39791249136400e+01,-1.03206423752431e-01
6.23691757121473e+03,1.39791249229527e+01,-1.03682803589798e-01
6.26570587470710e+03,1.39791249323515e+01,-1.04161382305349e-01
6.29462705897085e+03,1.39791249418373e+01,-1.04642170048772e-01
6.32368173735578e+03,1.39791249514109e+01,-1.05125177016593e-01
6.35287052604273e+03,1.39791249610731e+01,-1.05610413452415e-01
6.38219404405674e+03,1.39791249708247e+01,-1.06097889647122e-01
6.41165291328013e+03,1.39791249806665e+01,-1.06587615939100e-01
6.44124775846569e+03,1.39791249905994e+01,-1.07079602714457e-01
6.47097920724995e+03,1.39791250006241e+01,-1.07573860407240e-01
6.50084789016647e+03,1.39791250107417e+01,-1.08070399499664e-01
6.53085444065923e+03,1.39791250209528e+01,-1.08569230522330e-01
6.56099949509604e+03,1.39791250312584e+01,-1.09070364054440e-01
6.59128369278206e+03,1.39791250416594e+01,-1.09573810724039e-01
6.62170767597335e+03,1.39791250521566e+01,-1.10079581208224e-01
6.65227208989048e+03,1.39791250627509e+01,-1.10587686233379e-01
6.68297758273224e+03,1.39791250734433e+01,-1.11098136575406e-01
6.71382480568934e+03,1.39791250842346e+01,-1.11610943059938e-01
6.74481441295829e+03,1.39791250951257e+01,-1.12126116562587e-01
6.77594706175521e+03,1.39791251061176e+01,-1.12643668009167e-01
6.80722341232978e+03,1.39791251172113e+01,-1.13163608375919e-01
6.83864412797927e+03,1.39791251284075e+01,-1.13685948689755e-01
6.87020987506260e+03,1.39791251397074e+01,-1.14210700028487e-01
6.90192132301445e+03,1.39791251511118e+01,-1.14737873521058e-01
6.93377914435947e+03,1.39791251626217e+01,-1.15267480347787e-01
6.96578401472655e+03,1.39791251742381e+01,-1.15799531740602e-01
6.99793661286312e+03,1.39791251859620e+01,-1.16334038983270e-01
7.03023762064960e+03,1.39791251977944e+01,-1.16871013411652e-01
7.06268772311380e+03,1.39791252097363e+01,-1.17410466413932e-01
7.09528760844549e+03,1.39791252217886e+01,-1.17952409430859e-01
7.12803796801097e+03,1.39791252339525e+01,-1.18496853955998e-01
7.16093949636775e+03,1.39791252462289e+01,-1.19043811535966e-01
7.19399289127926e+03,1.39791252586189e+01,-1.19593293770677e-01
7.22719885372967e+03,1.39791252711236e+01,-1.20145312313594e-01
7.26055808793875e+03,1.39791252837439e+01,-1.20699878871970e-01
7.29407130137678e+03,1.39791252964810e+01,-1.21257005207101e-01
7.32773920477959e+03,1.39791253093360e+01,-1.21816703134570e-01
7.36156251216363e+03,1.39791253223099e+01,-1.22378984524505e-01
7.39554194084107e+03,1.39791253354039e+01,-1.22943861301825e-01
7.42967821143507e+03,1.39791253486190e+01,-1.23511345446490e-01
7.46397204789502e+03,1.39791253619563e+01,-1.24081448993769e-01
7.49842417751191e+03,1.39791253754171e+01,-1.24654184034479e-01
7.53303533093375e+03,1.39791253890025e+01,-1.25229562715249e-01
7.56780624218108e+03,1.39791254027135e+01,-1.25807597238784e-01
7.60273764866252e+03,1.39791254165514e+01,-1.26388299864105e-01
7.63783029119040e+03,1.39791254305173e+01,-1.26971682906834e-01
7.67308491399651e+03,1.39791254446124e+01,-1.27557758739436e-01
7.70850226474784e+03,1.39791254588380e+01,-1.28146539791484e-01
7.74408309456245e+03,1.39791254731952e+01,-1.28738038549936e-01
7.77982815802542e+03,1.39791254876852e+01,-1.29332267559381e-01
7.81573821320481e+03,1.39791255023093e+01,-1.29929239422320e-01
7.85181402166781e+03,1.39791255170687e+01,-1.30528966799425e-01
7.88805634849679e+03,1.39791255319646e+01,-1.31131462409812e-01
7.92446596230561e+03,1.39791255469984e+01,-1.31736739031309e-01
7.96104363525590e+03,1.39791255621713e+01,-1.32344809500726e-01
7.99779014307339e+03,1.39791255774846e+01,-1.32955686714130e-01
8.03470626506443e+03,1.39791255929395e+01,-1.33569383627116e-01
8.07179278413248e+03,1.39791256085375e+01,-1.34185913255081e-01
8.10905048679470e+03,1.39791256242798e+01,-1.34805288673507e-01
8.14648016319866e+03,1.39791256401677e+01,-1.35427523018231e-01
8.18408260713909e+03,1.39791256562026e+01,-1.36052629485716e-01
8.22185861607471e+03,1.39791256723859e+01,-1.36680621333362e-01
8.25980899114513e+03,1.39791256887190e+01,-1.37311511879748e-01
8.29793453718786e+03,1.39791257052031e+01,-1.37945314504938e-01
8.33623606275537e+03,1.39791257218398e+01,-1.38582042650764e-01
8.37471438013224e+03,1.39791257386304e+01,-1.39221709821101e-01
8.41337030535239e+03,1.39791257555763e+01,-1.39864329582158e-01
8.45220465821638e+03,1.39791257726791e+01,-1.40509915562775e-01
8.49121826230878e+03,1.39791257899401e+01,-1.41158481454693e-01
8.53041194501568e+03,1.39791258073608e+01,-1.41810041012868e-01
8.56978653754219e+03,1.39791258249426e+01,-1.42464608055738e-01
8.60934287493009e+03,1.39791258426872e+01,-1.43122196465532e-01
8.64908179607557e+03,1.39791258605959e+01,-1.43782820188565e-01
8.68900414374694e+03,1.39791258786704e+01,-1.44446493235532e-01
8.72911076460258e+03,1.39791258969120e+01,-1.45113229681786e-01
8.76940250920887e+03,1.39791259153225e+01,-1.45783043667678e-01
8.80988023205821e+03,1.39791259339033e+01,-1.46455949398814e-01
8.85054479158717e+03,1.39791259526560e+01,-1.47131961146377e-01
8.89139705019468e+03,1.39791259715822e+01,-1.47811093247437e-01
8.93243787426032e+03,1.39791259906835e+01,-1.48493360105237e-01
8.97366813416270e+03,1.39791260099615e+01,-1.49178776189509e-01
9.01508870429791e+03,1.39791260294180e+01,-1.49867356036781e-01
9.05670046309808e+03,1.39791260490544e+01,-1.50559114250683e-01
9.09850429304999e+03,1.39791260688725e+01,-1.51254065502258e-01
9.14050108071378e+03,1.39791260888740e+01,-1.51952224530271e-01
9.18269171674180e+03,1.39791261090606e+01,-1.52653606141520e-01
9.22507709589744e+03,1.39791261294339e+01,-1.53358225211163e-01
9.26765811707413e+03,1.39791261499957e+01,-1.54066096683013e-01
9.31043568331441e+03,1.39791261707478e+01,-1.54777235569876e-01
9.35341070182908e+03,1.39791261916919e+01,-1.55491656953849e-01
9.39658408401642e+03,1.39791262128297e+01,-1.56209375986660e-01
9.43995674548154e+03,1.39791262341632e+01,-1.56930407889973e-01
9.48352960605581e+03,1.39791262556940e+01,-1.57654767955722e-01
9.52730358981631e+03,1.39791262774240e+01,-1.58382471546430e-01
9.57127962510551e+03,1.39791262993551e+01,-1.59113534095534e-01
9.61545864455087e+03,1.39791263214891e+01,-1.59847971107715e-01
9.65984158508470e+03,1.39791263438279e+01,-1.60585798159231e-01
9.70442938796397e+03,1.39791263663733e+01,-1.61327030898237e-01
9.74922299879031e+03,1.39791263891274e+01,-1.62071685045127e-01
9.79422336753003e+03,1.39791264120920e+01,-1.62819776392854e-01
9.83943144853431e+03,1.39791264352690e+01,-1.63571320807294e-01
9.88484820055939e+03,1.39791264586606e+01,-1.64326334227545e-01
9.93047458678694e+03,1.39791264822685e+01,-1.65084832666285e-01
9.97631157484449e+03,1.39791265060948e+01,-1.65846832210120e-01
1.00223601368259e+04,1.39791265301417e+01,-1.66612349019903e-01
1.00686212493120e+04,1.39791265544109e+01,-1.67381399331105e-01
1.01150958933914e+04,1.39791265789048e+01,-1.68153999454121e-01
1.01617850546812e+04,1.39791266036253e+01,-1.68930165774660e-01
1.02086897233477e+04,1.39791266285744e+01,-1.69709914754054e-01
1.02558108941279e+04,1.39791266537545e+01,-1.70493262929642e-01
1.03031495663501e+04,1.39791266791674e+01,-1.71280226915083e-01
1.03507067439553e+04,1.39791267048156e+01,-1.72070823400748e-01
1.03984834355186e+04,1.39791267307010e+01,-1.72865069154038e-01
1.04464806542703e+04,1.39791267568259e+01,-1.73662981019773e-01
1.04946994181177e+04,1.39791267831925e+01,-1.74464575920515e-01
1.05431407496665e+04,1.39791268098031e+01,-1.75269870856959e-01
1.05918056762426e+04,1.39791268366599e+01,-1.76078882908275e-01
1.06406952299137e+04,1.39791268637652e+01,-1.76891629232472e-01
1.06898104475113e+04,1.39791268911212e+01,-1.77708127066772e-01
1.07391523706528e+04,1.39791269187304e+01,-1.78528393727959e-01
1.07887220457634e+04,1.39791269465950e+01,-1.79352446612763e-01
1.08385205240986e+04,1.39791269747174e+01,-1.80180303198224e-01
1.08885488617659e+04,1.39791270031000e+01,-1.81011981042051e-01
1.09388081197479e+04,1.39791270317452e+01,-1.81847497783019e-01
1.09892993639242e+04,1.39791270606554e+01,-1.82686871141312e-01
1.10400236650946e+04,1.39791270898331e+01,-1.83530118918930e-01
1.10909820990012e+04,1.39791271192808e+01,-1.84377259000049e-01
1.11421757463516e+04,1.39791271490009e+01,-1.85228309351395e-01
1.11936056928418e+04,1.39791271789960e+01,-1.86083288022647e-01
1.12452730291790e+04,1.39791272092686e+01,-1.86942213146797e-01
1.12971788511050e+04,1.39791272398213e+01,-1.87805102940551e-01
1.13493242594192e+04,1.39791272706567e+01,-1.88671975704704e-01
1.14017103600022e+04,1.39791273017774e+01,-1.89542849824541e-01
1.14543382638390e+04,1.39791273331860e+01,-1.90417743770210e-01
1.15072090870427e+04,1.39791273648851e+01,-1.91296676097135e-01
1.15603239508781e+04,1.39791273968776e+01,-1.92179665446388e-01
1.16136839817857e+04,1.39791274291661e+01,-1.93066730545097e-01
1.16672903114051e+04,1.39791274617533e+01,-1.93957890206849e-01
1.17211440765997e+04,1.39791274946420e+01,-1.94853163332069e-01
1.17752464194802e+04,1.39791275278350e+01,-1.95752568908442e-01
1.18295984874289e+04,1.39791275613351e+01,-1.96656126011310e-01
1.18842014331245e+04,1.39791275951451e+01,-1.97563853804063e-01
1.19390564145660e+04,1.39791276292679e+01,-1.98475771538566e-01
1.19941645950976e+04,1.39791276637065e+01,-1.99391898555553e-01
1.20495271434331e+04,1.39791276984637e+01,-2.00312254285040e-01
1.21051452336810e+04,1.39791277335424e+01,-2.01236858246754e-01
1.21610200453692e+04,1.39791277689457e+01,-2.02165730050514e-01
1.22171527634700e+04,1.39791278046766e+01,-2.03098889396682e-01
1.22735445784253e+04,1.39791278407380e+01,-2.04036356076555e-01
1.23301966861718e+04,1.39791278771331e+01,-2.04978149972796e-01
1.23871102881666e+04,1.39791279138648e+01,-2.05924291059863e-01
1.24442865914121e+04,1.39791279509365e+01,-2.06874799404415e-01
1.25017268084823e+04,1.39791279883511e+01,-2.07829695165752e-01
1.25594321575480e+04,1.39791280261118e+01,-2.08788998596240e-01
1.26174038624030e+04,1.39791280642220e+01,-2.09752730041734e-01
1.26756431524897e+04,1.39791281026847e+01,-2.10720909942021e-01
1.27341512629254e+04,1.39791281415033e+01,-2.11693558831243e-01
1.27929294345284e+04,1.39791281806810e+01,-2.12670697338340e-01
1.28519789138445e+04,1.39791282202212e+01,-2.13652346187488e-01
1.29113009531731e+04,1.39791282601272e+01,-2.14638526198525e-01
1.29708968105942e+04,1.39791283004024e+01,-2.15629258287414e-01
1.30307677499946e+04,1.39791283410502e+01,-2.16624563466675e-01
1.30909150410951e+04,1.39791283820741e+01,-2.17624462845828e-01
1.31513399594771e+04,1.39791284234775e+01,-2.18628977631845e-01
1.32120437866099e+04,1.39791284652640e+01,-2.19638129129608e-01
1.32730278098779e+04,1.39791285074371e+01,-2.20651938742349e-01
1.33342933226076e+04,1.39791285500004e+01,-2.21670427972112e-01
1.33958416240953e+04,1.39791285929575e+01,-2.22693618420193e-01
1.34576740196347e+04,1.39791286363119e+01,-2.23721531787627e-01
1.35197918205444e+04,1.39791286800675e+01,-2.24754189875630e-01
1.35821963441956e+04,1.39791287242279e+01,-2.25791614586058e-01
1.36448889140404e+04,1.39791287687969e+01,-2.26833827921880e-01
1.37078708596396e+04,1.39791288137782e+01,-2.27880851987649e-01
1.37711435166910e+04,1.39791288591757e+01,-2.28932708989964e-01
1.38347082270577e+04,1.39791289049932e+01,-2.29989421237936e-01
1.38985663387966e+04,1.39791289512345e+01,-2.31051011143677e-01
1.39627192061869e+04,1.39791289979037e+01,-2.32117501222761e-01
1.40271681897587e+04,1.39791290450046e+01,-2.33188914094706e-01
1.40919146563224e+04,1.39791290925413e+01,-2.34265272483467e-01
1.41569599789971e+04,1.39791291405178e+01,-2.35346599217892e-01
1.42223055372398e+04,1.39791291889381e+01,-2.36432917232236e-01
1.42879527168749e+04,1.39791292378065e+01,-2.37524249566618e-01
1.43539029101236e+04,1.39791292871269e+01,-2.38620619367540e-01
1.44201575156332e+04,1.39791293369036e+01,-2.39722049888351e-01
1.44867179385068e+04,1.39791293871408e+01,-2.40828564489769e-01
1.45535855903332e+04,1.39791294378428e+01,-2.41940186640335e-01
1.46207618892169e+04,1.39791294890139e+01,-2.43056939916963e-01
1.46882482598078e+04,1.39791295406584e+01,-2.44178848005402e-01
1.47560461333321e+04,1.39791295927807e+01,-2.45305934700754e-01
1.48241569476219e+04,1.39791296453852e+01,-2.46438223907970e-01
1.48925821471461e+04,1.39791296984764e+01,-2.47575739642373e-01
1.49613231830411e+04,1.39791297520587e+01,-2.48718506030150e-01
1.50303815131414e+04,1.39791298061368e+01,-2.49866547308876e-01
1.50997586020103e+04,1.39791298607151e+01,-2.51019887828026e-01
1.51694559209716e+04,1.39791299157984e+01,-2.52178552049490e-01
1.52394749481401e+04,1.39791299713913e+01,-2.53342564548087e-01
1.53098171684536e+04,1.39791300274985e+01,-2.54511950012098e-01
1.53804840737038e+04,1.39791300841248e+01,-2.55686733243783e-01
1.54514771625682e+04,1.39791301412749e+01,-2.56866939159911e-01
1.55227979406420e+04,1.39791301989538e+01,-2.58052592792283e-01
1.55944479204699e+04,1.39791302571663e+01,-2.59243719288268e-01
1.56664286215781e+04,1.39791303159173e+01,-2.60440343911335e-01
1.57387415705068e+04,1.39791303752118e+01,-2.61642492041591e-01
1.58113883008421e+04,1.39791304350549e+01,-2.62850189176322e-01
1.58843703532491e+04,1.39791304954516e+01,-2.64063460930525e-01
1.59576892755040e+04,1.39791305564071e+01,-2.65282333037462e-01
1.60313466225276e+04,1.39791306179265e+01,-2.66506831349200e-01
1.61053439564174e+04,1.39791306800150e+01,-2.67736981837159e-01
1.61796828464816e+04,1.39791307426780e+01,-2.68972810592681e-01
1.62543648692720e+04,1.39791308059206e+01,-2.70214343827543e-01
1.63293916086170e+04,1.39791308697483e+01,-2.71461607874558e-01
1.64047646556562e+04,1.39791309341665e+01,-2.72714629188118e-01
1.64804856088731e+04,1.39791309991806e+01,-2.73973434344739e-01
1.65565560741298e+04,1.39791310647962e+01,-2.75238050043642e-01
1.66329776647005e+04,1.39791311310189e+01,-2.76508503107334e-01
1.67097520013060e+04,1.39791311978541e+01,-2.77784820482135e-01
1.67868807121480e+04,1.39791312653077e+01,-2.79067029238793e-01
1.68643654329437e+04,1.39791313333853e+01,-2.80355156573032e-01
1.69422078069604e+04,1.39791314020926e+01,-2.81649229806146e-01
1.70204094850503e+04,1.39791314714356e+01,-2.82949276385565e-01
1.70989721256857e+04,1.39791315414201e+01,-2.84255323885444e-01
1.71778973949940e+04,1.39791316120520e+01,-2.85567400007255e-01
1.72571869667931e+04,1.39791316833374e+01,-2.86885532580369e-01
1.73368425226268e+04,1.39791317552822e+01,-2.88209749562627e-01
1.74168657518009e+04,1.39791318278925e+01,-2.89540079040984e-01
1.74972583514181e+04,1.39791319011746e+01,-2.90876549232048e-01
1.75780220264152e+04,1.39791319751346e+01,-2.92219188482720e-01
1.76591584895981e+04,1.39791320497789e+01,-2.93568025270778e-01
1.77406694616791e+04,1.39791321251136e+01,-2.94923088205485e-01
1.78225566713125e+04,1.39791322011453e+01,-2.96284406028187e-01
1.79048218551321e+04,1.39791322778803e+01,-2.97652007612949e-01
1.79874667577874e+04,1.39791323553252e+01,-2.99025921967145e-01
1.80704931319810e+04,1.39791324334865e+01,-3.00406178232068e-01
1.81539027385054e+04,1.39791325123709e+01,-3.01792805683584e-01
1.82376973462807e+04,1.39791325919850e+01,-3.03185833732711e-01
1.83218787323920e+04,1.39791326723356e+01,-3.04585291926278e-01
1.84064486821269e+04,1.39791327534295e+01,-3.05991209947527e-01
1.84914089890136e+04,1.39791328352737e+01,-3.07403617616755e-01
1.85767614548589e+04,1.39791329178749e+01,-3.08822544891962e-01
1.86625078897863e+04,1.39791330012402e+01,-3.10248021869447e-01
1.87486501122745e+04,1.39791330853768e+01,-3.11680078784490e-01
1.88351899491958e+04,1.39791331702917e+01,-3.13118746011960e-01
1.89221292358550e+04,1.39791332559920e+01,-3.14564054066995e-01
1.90094698160284e+04,1.39791333424852e+01,-3.16016033605614e-01
1.90972135420026e+04,1.39791334297785e+01,-3.17474715425393e-01
1.91853622746143e+04,1.39791335178793e+01,-3.18940130466107e-01
1.92739178832889e+04,1.39791336067951e+01,-3.20412309810391e-01
1.93628822460812e+04,1.39791336965334e+01,-3.21891284684399e-01
1.94522572497144e+04,1.39791337871018e+01,-3.23377086458468e-01
1.95420447896204e+04,1.39791338785080e+01,-3.24869746647789e-01
1.96322467699803e+04,1.39791339707599e+01,-3.26369296913066e-01
1.97228651037643e+04,1.39791340638650e+01,-3.27875769061190e-01
1.98139017127723e+04,1.39791341578314e+01,-3.29389195045928e-01
1.99053585276752e+04,1.39791342526671e+01,-3.30909606968579e-01
1.99972374880552e+04,1.39791343483800e+01,-3.32437037078691e-01
2.00895405424474e+04,1.39791344449784e+01,-3.33971517774688e-01
2.01822696483806e+04,1.39791345424703e+01,-3.35513081604626e-01
2.02754267724196e+04,1.39791346408640e+01,-3.37061761266841e-01
2.03690138902060e+04,1.39791347401679e+01,-3.38617589610649e-01
2.04630329865009e+04,1.39791348403904e+01,-3.40180599637054e-01
2.05574860552265e+04,1.39791349415399e+01,-3.41750824499443e-01
2.06523750995084e+04,1.39791350436252e+01,-3.43328297504294e-01
2.07477021317185e+04,1.39791351466547e+01,-3.44913052111871e-01
2.08434691735172e+04,1.39791352506373e+01,-3.46505121936965e-01
2.09396782558963e+04,1.39791353555817e+01,-3.48104540749558e-01
