v1	V(n001)	V(n002)	I(D)
-1.000000000000000e+01	-3.224998e-08	-1.347791e+01	-1.348791e-11
-9.990000000000000e+00	-3.224529e-08	-1.347791e+01	-1.348791e-11
-9.980000000000000e+00	-3.224060e-08	-1.347791e+01	-1.348791e-11
-9.970000000000001e+00	-3.223591e-08	-1.347791e+01	-1.348791e-11
-9.960000000000001e+00	-3.223122e-08	-1.347790e+01	-1.348790e-11
-9.950000000000001e+00	-3.222653e-08	-1.347790e+01	-1.348790e-11
-9.940000000000001e+00	-3.222184e-08	-1.347790e+01	-1.348790e-11
-9.930000000000001e+00	-3.221715e-08	-1.347790e+01	-1.348790e-11
-9.920000000000002e+00	-3.221245e-08	-1.347790e+01	-1.348790e-11
-9.910000000000002e+00	-3.220777e-08	-1.347790e+01	-1.348790e-11
-9.900000000000002e+00	-3.220308e-08	-1.347790e+01	-1.348790e-11
-9.890000000000002e+00	-3.219838e-08	-1.347790e+01	-1.348790e-11
-9.880000000000003e+00	-3.219369e-08	-1.347789e+01	-1.348789e-11
-9.870000000000003e+00	-3.218900e-08	-1.347789e+01	-1.348789e-11
-9.860000000000003e+00	-3.218431e-08	-1.347789e+01	-1.348789e-11
-9.850000000000003e+00	-3.217962e-08	-1.347789e+01	-1.348789e-11
-9.840000000000003e+00	-3.217493e-08	-1.347789e+01	-1.348789e-11
-9.830000000000004e+00	-3.217024e-08	-1.347789e+01	-1.348789e-11
-9.820000000000004e+00	-3.216555e-08	-1.347789e+01	-1.348789e-11
-9.810000000000004e+00	-3.216086e-08	-1.347789e+01	-1.348789e-11
-9.800000000000004e+00	-3.215617e-08	-1.347788e+01	-1.348788e-11
-9.790000000000004e+00	-3.215148e-08	-1.347788e+01	-1.348788e-11
-9.780000000000005e+00	-3.214678e-08	-1.347788e+01	-1.348788e-11
-9.770000000000005e+00	-3.214209e-08	-1.347788e+01	-1.348788e-11
-9.760000000000005e+00	-3.213740e-08	-1.347788e+01	-1.348788e-11
-9.750000000000005e+00	-3.213271e-08	-1.347788e+01	-1.348788e-11
-9.740000000000006e+00	-3.212802e-08	-1.347788e+01	-1.348788e-11
-9.730000000000006e+00	-3.212333e-08	-1.347788e+01	-1.348788e-11
-9.720000000000006e+00	-3.211864e-08	-1.347787e+01	-1.348787e-11
-9.710000000000006e+00	-3.211395e-08	-1.347787e+01	-1.348787e-11
-9.700000000000006e+00	-3.210926e-08	-1.347787e+01	-1.348787e-11
-9.690000000000007e+00	-3.210457e-08	-1.347787e+01	-1.348787e-11
-9.680000000000007e+00	-3.209988e-08	-1.347787e+01	-1.348787e-11
-9.670000000000007e+00	-3.209519e-08	-1.347787e+01	-1.348787e-11
-9.660000000000007e+00	-3.209049e-08	-1.347787e+01	-1.348787e-11
-9.650000000000007e+00	-3.208580e-08	-1.347787e+01	-1.348787e-11
-9.640000000000008e+00	-3.208111e-08	-1.347787e+01	-1.348787e-11
-9.630000000000008e+00	-3.207642e-08	-1.347786e+01	-1.348786e-11
-9.620000000000008e+00	-3.207173e-08	-1.347786e+01	-1.348786e-11
-9.610000000000008e+00	-3.206704e-08	-1.347786e+01	-1.348786e-11
-9.600000000000009e+00	-3.206235e-08	-1.347786e+01	-1.348786e-11
-9.590000000000009e+00	-3.205766e-08	-1.347786e+01	-1.348786e-11
-9.580000000000009e+00	-3.205297e-08	-1.347786e+01	-1.348786e-11
-9.570000000000009e+00	-3.204828e-08	-1.347786e+01	-1.348786e-11
-9.560000000000009e+00	-3.204359e-08	-1.347786e+01	-1.348785e-11
-9.550000000000010e+00	-3.203889e-08	-1.347785e+01	-1.348785e-11
-9.540000000000010e+00	-3.203420e-08	-1.347785e+01	-1.348785e-11
-9.530000000000010e+00	-3.202952e-08	-1.347785e+01	-1.348785e-11
-9.520000000000010e+00	-3.202482e-08	-1.347785e+01	-1.348785e-11
-9.510000000000010e+00	-3.202013e-08	-1.347785e+01	-1.348785e-11
-9.500000000000011e+00	-3.201544e-08	-1.347785e+01	-1.348785e-11
-9.490000000000011e+00	-3.201075e-08	-1.347785e+01	-1.348785e-11
-9.480000000000011e+00	-3.200606e-08	-1.347785e+01	-1.348785e-11
-9.470000000000011e+00	-3.200137e-08	-1.347784e+01	-1.348784e-11
-9.460000000000012e+00	-3.199668e-08	-1.347784e+01	-1.348784e-11
-9.450000000000012e+00	-3.199199e-08	-1.347784e+01	-1.348784e-11
-9.440000000000012e+00	-3.198729e-08	-1.347784e+01	-1.348784e-11
-9.430000000000012e+00	-3.198261e-08	-1.347784e+01	-1.348784e-11
-9.420000000000012e+00	-3.197792e-08	-1.347784e+01	-1.348784e-11
-9.410000000000013e+00	-3.197322e-08	-1.347784e+01	-1.348784e-11
-9.400000000000013e+00	-3.196853e-08	-1.347784e+01	-1.348784e-11
-9.390000000000013e+00	-3.196384e-08	-1.347783e+01	-1.348783e-11
-9.380000000000013e+00	-3.195915e-08	-1.347783e+01	-1.348783e-11
-9.370000000000013e+00	-3.195446e-08	-1.347783e+01	-1.348783e-11
-9.360000000000014e+00	-3.194977e-08	-1.347783e+01	-1.348783e-11
-9.350000000000014e+00	-3.194508e-08	-1.347783e+01	-1.348783e-11
-9.340000000000014e+00	-3.194039e-08	-1.347783e+01	-1.348783e-11
-9.330000000000014e+00	-3.193569e-08	-1.347783e+01	-1.348783e-11
-9.320000000000014e+00	-3.193101e-08	-1.347783e+01	-1.348783e-11
-9.310000000000015e+00	-3.192632e-08	-1.347783e+01	-1.348782e-11
-9.300000000000015e+00	-3.192162e-08	-1.347782e+01	-1.348782e-11
-9.290000000000015e+00	-3.191693e-08	-1.347782e+01	-1.348782e-11
-9.280000000000015e+00	-3.191224e-08	-1.347782e+01	-1.348782e-11
-9.270000000000016e+00	-3.190755e-08	-1.347782e+01	-1.348782e-11
-9.260000000000016e+00	-3.190286e-08	-1.347782e+01	-1.348782e-11
-9.250000000000016e+00	-3.189817e-08	-1.347782e+01	-1.348782e-11
-9.240000000000016e+00	-3.189348e-08	-1.347782e+01	-1.348782e-11
-9.230000000000016e+00	-3.188879e-08	-1.347781e+01	-1.348782e-11
-9.220000000000017e+00	-3.188410e-08	-1.347781e+01	-1.348781e-11
-9.210000000000017e+00	-3.187941e-08	-1.347781e+01	-1.348781e-11
-9.200000000000017e+00	-3.187472e-08	-1.347781e+01	-1.348781e-11
-9.190000000000017e+00	-3.187003e-08	-1.347781e+01	-1.348781e-11
-9.180000000000017e+00	-3.186533e-08	-1.347781e+01	-1.348781e-11
-9.170000000000018e+00	-3.186064e-08	-1.347781e+01	-1.348781e-11
-9.160000000000018e+00	-3.185595e-08	-1.347781e+01	-1.348781e-11
-9.150000000000018e+00	-3.185126e-08	-1.347781e+01	-1.348781e-11
-9.140000000000018e+00	-3.184657e-08	-1.347780e+01	-1.348780e-11
-9.130000000000019e+00	-3.184188e-08	-1.347780e+01	-1.348780e-11
-9.120000000000019e+00	-3.183719e-08	-1.347780e+01	-1.348780e-11
-9.110000000000019e+00	-3.183250e-08	-1.347780e+01	-1.348780e-11
-9.100000000000019e+00	-3.182781e-08	-1.347780e+01	-1.348780e-11
-9.090000000000019e+00	-3.182312e-08	-1.347780e+01	-1.348780e-11
-9.080000000000020e+00	-3.181843e-08	-1.347780e+01	-1.348780e-11
-9.070000000000020e+00	-3.181373e-08	-1.347780e+01	-1.348780e-11
-9.060000000000020e+00	-3.180904e-08	-1.347779e+01	-1.348779e-11
-9.050000000000020e+00	-3.180435e-08	-1.347779e+01	-1.348779e-11
-9.040000000000020e+00	-3.179966e-08	-1.347779e+01	-1.348779e-11
-9.030000000000021e+00	-3.179497e-08	-1.347779e+01	-1.348779e-11
-9.020000000000021e+00	-3.179028e-08	-1.347779e+01	-1.348779e-11
-9.010000000000021e+00	-3.178559e-08	-1.347779e+01	-1.348779e-11
-9.000000000000021e+00	-3.178090e-08	-1.347779e+01	-1.348779e-11
-8.990000000000022e+00	-3.177621e-08	-1.347779e+01	-1.348779e-11
-8.980000000000022e+00	-3.177152e-08	-1.347778e+01	-1.348778e-11
-8.970000000000022e+00	-3.176683e-08	-1.347778e+01	-1.348778e-11
-8.960000000000022e+00	-3.176213e-08	-1.347778e+01	-1.348778e-11
-8.950000000000022e+00	-3.175744e-08	-1.347778e+01	-1.348778e-11
-8.940000000000023e+00	-3.175276e-08	-1.347778e+01	-1.348778e-11
-8.930000000000023e+00	-3.174806e-08	-1.347778e+01	-1.348778e-11
-8.920000000000023e+00	-3.174337e-08	-1.347778e+01	-1.348778e-11
-8.910000000000023e+00	-3.173868e-08	-1.347778e+01	-1.348778e-11
-8.900000000000023e+00	-3.173399e-08	-1.347777e+01	-1.348777e-11
-8.890000000000024e+00	-3.172930e-08	-1.347777e+01	-1.348777e-11
-8.880000000000024e+00	-3.172461e-08	-1.347777e+01	-1.348777e-11
-8.870000000000024e+00	-3.171992e-08	-1.347777e+01	-1.348777e-11
-8.860000000000024e+00	-3.171523e-08	-1.347777e+01	-1.348777e-11
-8.850000000000025e+00	-3.171054e-08	-1.347777e+01	-1.348777e-11
-8.840000000000025e+00	-3.170585e-08	-1.347777e+01	-1.348777e-11
-8.830000000000025e+00	-3.170116e-08	-1.347777e+01	-1.348777e-11
-8.820000000000025e+00	-3.169646e-08	-1.347777e+01	-1.348776e-11
-8.810000000000025e+00	-3.169177e-08	-1.347776e+01	-1.348776e-11
-8.800000000000026e+00	-3.168708e-08	-1.347776e+01	-1.348776e-11
-8.790000000000026e+00	-3.168239e-08	-1.347776e+01	-1.348776e-11
-8.780000000000026e+00	-3.167770e-08	-1.347776e+01	-1.348776e-11
-8.770000000000026e+00	-3.167301e-08	-1.347776e+01	-1.348776e-11
-8.760000000000026e+00	-3.166832e-08	-1.347776e+01	-1.348776e-11
-8.750000000000027e+00	-3.166363e-08	-1.347776e+01	-1.348776e-11
-8.740000000000027e+00	-3.165894e-08	-1.347775e+01	-1.348776e-11
-8.730000000000027e+00	-3.165425e-08	-1.347775e+01	-1.348775e-11
-8.720000000000027e+00	-3.164956e-08	-1.347775e+01	-1.348775e-11
-8.710000000000027e+00	-3.164487e-08	-1.347775e+01	-1.348775e-11
-8.700000000000028e+00	-3.164017e-08	-1.347775e+01	-1.348775e-11
-8.690000000000028e+00	-3.163548e-08	-1.347775e+01	-1.348775e-11
-8.680000000000028e+00	-3.163079e-08	-1.347775e+01	-1.348775e-11
-8.670000000000028e+00	-3.162610e-08	-1.347775e+01	-1.348775e-11
-8.660000000000029e+00	-3.162141e-08	-1.347775e+01	-1.348774e-11
-8.650000000000029e+00	-3.161672e-08	-1.347774e+01	-1.348774e-11
-8.640000000000029e+00	-3.161203e-08	-1.347774e+01	-1.348774e-11
-8.630000000000029e+00	-3.160734e-08	-1.347774e+01	-1.348774e-11
-8.620000000000029e+00	-3.160265e-08	-1.347774e+01	-1.348774e-11
-8.610000000000030e+00	-3.159796e-08	-1.347774e+01	-1.348774e-11
-8.600000000000030e+00	-3.159327e-08	-1.347774e+01	-1.348774e-11
-8.590000000000030e+00	-3.158857e-08	-1.347774e+01	-1.348774e-11
-8.580000000000030e+00	-3.158388e-08	-1.347774e+01	-1.348774e-11
-8.570000000000030e+00	-3.157919e-08	-1.347773e+01	-1.348773e-11
-8.560000000000031e+00	-3.157450e-08	-1.347773e+01	-1.348773e-11
-8.550000000000031e+00	-3.156981e-08	-1.347773e+01	-1.348773e-11
-8.540000000000031e+00	-3.156512e-08	-1.347773e+01	-1.348773e-11
-8.530000000000031e+00	-3.156043e-08	-1.347773e+01	-1.348773e-11
-8.520000000000032e+00	-3.155574e-08	-1.347773e+01	-1.348773e-11
-8.510000000000032e+00	-3.155105e-08	-1.347773e+01	-1.348773e-11
-8.500000000000032e+00	-3.154636e-08	-1.347773e+01	-1.348773e-11
-8.490000000000032e+00	-3.154167e-08	-1.347772e+01	-1.348772e-11
-8.480000000000032e+00	-3.153698e-08	-1.347772e+01	-1.348772e-11
-8.470000000000033e+00	-3.153228e-08	-1.347772e+01	-1.348772e-11
-8.460000000000033e+00	-3.152759e-08	-1.347772e+01	-1.348772e-11
-8.450000000000033e+00	-3.152290e-08	-1.347772e+01	-1.348772e-11
-8.440000000000033e+00	-3.151821e-08	-1.347772e+01	-1.348772e-11
-8.430000000000033e+00	-3.151352e-08	-1.347772e+01	-1.348772e-11
-8.420000000000034e+00	-3.150883e-08	-1.347772e+01	-1.348772e-11
-8.410000000000034e+00	-3.150414e-08	-1.347771e+01	-1.348771e-11
-8.400000000000034e+00	-3.149945e-08	-1.347771e+01	-1.348771e-11
-8.390000000000034e+00	-3.149476e-08	-1.347771e+01	-1.348771e-11
-8.380000000000035e+00	-3.149007e-08	-1.347771e+01	-1.348771e-11
-8.370000000000035e+00	-3.148538e-08	-1.347771e+01	-1.348771e-11
-8.360000000000035e+00	-3.148068e-08	-1.347771e+01	-1.348771e-11
-8.350000000000035e+00	-3.147600e-08	-1.347771e+01	-1.348771e-11
-8.340000000000035e+00	-3.147131e-08	-1.347771e+01	-1.348771e-11
-8.330000000000036e+00	-3.146661e-08	-1.347771e+01	-1.348770e-11
-8.320000000000036e+00	-3.146192e-08	-1.347770e+01	-1.348770e-11
-8.310000000000036e+00	-3.145723e-08	-1.347770e+01	-1.348770e-11
-8.300000000000036e+00	-3.145254e-08	-1.347770e+01	-1.348770e-11
-8.290000000000036e+00	-3.144785e-08	-1.347770e+01	-1.348770e-11
-8.280000000000037e+00	-3.144316e-08	-1.347770e+01	-1.348770e-11
-8.270000000000037e+00	-3.143847e-08	-1.347770e+01	-1.348770e-11
-8.260000000000037e+00	-3.143378e-08	-1.347770e+01	-1.348770e-11
-8.250000000000037e+00	-3.142909e-08	-1.347769e+01	-1.348770e-11
-8.240000000000038e+00	-3.142440e-08	-1.347769e+01	-1.348769e-11
-8.230000000000038e+00	-3.141971e-08	-1.347769e+01	-1.348769e-11
-8.220000000000038e+00	-3.141501e-08	-1.347769e+01	-1.348769e-11
-8.210000000000038e+00	-3.141032e-08	-1.347769e+01	-1.348769e-11
-8.200000000000038e+00	-3.140563e-08	-1.347769e+01	-1.348769e-11
-8.190000000000039e+00	-3.140094e-08	-1.347769e+01	-1.348769e-11
-8.180000000000039e+00	-3.139625e-08	-1.347769e+01	-1.348769e-11
-8.170000000000039e+00	-3.139156e-08	-1.347768e+01	-1.348768e-11
-8.160000000000039e+00	-3.138687e-08	-1.347768e+01	-1.348768e-11
-8.150000000000039e+00	-3.138218e-08	-1.347768e+01	-1.348768e-11
-8.140000000000040e+00	-3.137749e-08	-1.347768e+01	-1.348768e-11
-8.130000000000040e+00	-3.137280e-08	-1.347768e+01	-1.348768e-11
-8.120000000000040e+00	-3.136811e-08	-1.347768e+01	-1.348768e-11
-8.110000000000040e+00	-3.136342e-08	-1.347768e+01	-1.348768e-11
-8.100000000000041e+00	-3.135872e-08	-1.347768e+01	-1.348768e-11
-8.090000000000041e+00	-3.135403e-08	-1.347768e+01	-1.348768e-11
-8.080000000000041e+00	-3.134934e-08	-1.347767e+01	-1.348767e-11
-8.070000000000041e+00	-3.134465e-08	-1.347767e+01	-1.348767e-11
-8.060000000000041e+00	-3.133996e-08	-1.347767e+01	-1.348767e-11
-8.050000000000042e+00	-3.133527e-08	-1.347767e+01	-1.348767e-11
-8.040000000000042e+00	-3.133058e-08	-1.347767e+01	-1.348767e-11
-8.030000000000042e+00	-3.132589e-08	-1.347767e+01	-1.348767e-11
-8.020000000000042e+00	-3.132120e-08	-1.347767e+01	-1.348767e-11
-8.010000000000042e+00	-3.131651e-08	-1.347767e+01	-1.348767e-11
-8.000000000000043e+00	-3.131182e-08	-1.347766e+01	-1.348766e-11
-7.990000000000043e+00	-3.130712e-08	-1.347766e+01	-1.348766e-11
-7.980000000000043e+00	-3.130243e-08	-1.347766e+01	-1.348766e-11
-7.970000000000043e+00	-3.129774e-08	-1.347766e+01	-1.348766e-11
-7.960000000000043e+00	-3.129305e-08	-1.347766e+01	-1.348766e-11
-7.950000000000044e+00	-3.128836e-08	-1.347766e+01	-1.348766e-11
-7.940000000000044e+00	-3.128367e-08	-1.347766e+01	-1.348766e-11
-7.930000000000044e+00	-3.127898e-08	-1.347766e+01	-1.348766e-11
-7.920000000000044e+00	-3.127429e-08	-1.347765e+01	-1.348765e-11
-7.910000000000045e+00	-3.126960e-08	-1.347765e+01	-1.348765e-11
-7.900000000000045e+00	-3.126491e-08	-1.347765e+01	-1.348765e-11
-7.890000000000045e+00	-3.126022e-08	-1.347765e+01	-1.348765e-11
-7.880000000000045e+00	-3.125553e-08	-1.347765e+01	-1.348765e-11
-7.870000000000045e+00	-3.125083e-08	-1.347765e+01	-1.348765e-11
-7.860000000000046e+00	-3.124615e-08	-1.347765e+01	-1.348765e-11
-7.850000000000046e+00	-3.124146e-08	-1.347765e+01	-1.348765e-11
-7.840000000000046e+00	-3.123676e-08	-1.347764e+01	-1.348764e-11
-7.830000000000046e+00	-3.123207e-08	-1.347764e+01	-1.348764e-11
-7.820000000000046e+00	-3.122738e-08	-1.347764e+01	-1.348764e-11
-7.810000000000047e+00	-3.122269e-08	-1.347764e+01	-1.348764e-11
-7.800000000000047e+00	-3.121800e-08	-1.347764e+01	-1.348764e-11
-7.790000000000047e+00	-3.121331e-08	-1.347764e+01	-1.348764e-11
-7.780000000000047e+00	-3.120862e-08	-1.347764e+01	-1.348764e-11
-7.770000000000048e+00	-3.120393e-08	-1.347764e+01	-1.348764e-11
-7.760000000000048e+00	-3.119924e-08	-1.347763e+01	-1.348763e-11
-7.750000000000048e+00	-3.119455e-08	-1.347763e+01	-1.348763e-11
-7.740000000000048e+00	-3.118986e-08	-1.347763e+01	-1.348763e-11
-7.730000000000048e+00	-3.118516e-08	-1.347763e+01	-1.348763e-11
-7.720000000000049e+00	-3.118047e-08	-1.347763e+01	-1.348763e-11
-7.710000000000049e+00	-3.117578e-08	-1.347763e+01	-1.348763e-11
-7.700000000000049e+00	-3.117109e-08	-1.347763e+01	-1.348763e-11
-7.690000000000049e+00	-3.116640e-08	-1.347763e+01	-1.348763e-11
-7.680000000000049e+00	-3.116171e-08	-1.347762e+01	-1.348763e-11
-7.670000000000050e+00	-3.115702e-08	-1.347762e+01	-1.348762e-11
-7.660000000000050e+00	-3.115233e-08	-1.347762e+01	-1.348762e-11
-7.650000000000050e+00	-3.114764e-08	-1.347762e+01	-1.348762e-11
-7.640000000000050e+00	-3.114295e-08	-1.347762e+01	-1.348762e-11
-7.630000000000051e+00	-3.113826e-08	-1.347762e+01	-1.348762e-11
-7.620000000000051e+00	-3.113357e-08	-1.347762e+01	-1.348762e-11
-7.610000000000051e+00	-3.112887e-08	-1.347762e+01	-1.348762e-11
-7.600000000000051e+00	-3.112418e-08	-1.347762e+01	-1.348761e-11
-7.590000000000051e+00	-3.111949e-08	-1.347761e+01	-1.348761e-11
-7.580000000000052e+00	-3.111480e-08	-1.347761e+01	-1.348761e-11
-7.570000000000052e+00	-3.111011e-08	-1.347761e+01	-1.348761e-11
-7.560000000000052e+00	-3.110542e-08	-1.347761e+01	-1.348761e-11
-7.550000000000052e+00	-3.110073e-08	-1.347761e+01	-1.348761e-11
-7.540000000000052e+00	-3.109604e-08	-1.347761e+01	-1.348761e-11
-7.530000000000053e+00	-3.109135e-08	-1.347761e+01	-1.348761e-11
-7.520000000000053e+00	-3.108666e-08	-1.347760e+01	-1.348761e-11
-7.510000000000053e+00	-3.108197e-08	-1.347760e+01	-1.348760e-11
-7.500000000000053e+00	-3.107728e-08	-1.347760e+01	-1.348760e-11
-7.490000000000054e+00	-3.107258e-08	-1.347760e+01	-1.348760e-11
-7.480000000000054e+00	-3.106789e-08	-1.347760e+01	-1.348760e-11
-7.470000000000054e+00	-3.106321e-08	-1.347760e+01	-1.348760e-11
-7.460000000000054e+00	-3.105851e-08	-1.347760e+01	-1.348760e-11
-7.450000000000054e+00	-3.105382e-08	-1.347760e+01	-1.348760e-11
-7.440000000000055e+00	-3.104913e-08	-1.347760e+01	-1.348760e-11
-7.430000000000055e+00	-3.104444e-08	-1.347759e+01	-1.348759e-11
-7.420000000000055e+00	-3.103975e-08	-1.347759e+01	-1.348759e-11
-7.410000000000055e+00	-3.103506e-08	-1.347759e+01	-1.348759e-11
-7.400000000000055e+00	-3.103037e-08	-1.347759e+01	-1.348759e-11
-7.390000000000056e+00	-3.102568e-08	-1.347759e+01	-1.348759e-11
-7.380000000000056e+00	-3.102098e-08	-1.347759e+01	-1.348759e-11
-7.370000000000056e+00	-3.101630e-08	-1.347759e+01	-1.348759e-11
-7.360000000000056e+00	-3.101161e-08	-1.347759e+01	-1.348759e-11
-7.350000000000056e+00	-3.100691e-08	-1.347758e+01	-1.348758e-11
-7.340000000000057e+00	-3.100222e-08	-1.347758e+01	-1.348758e-11
-7.330000000000057e+00	-3.099753e-08	-1.347758e+01	-1.348758e-11
-7.320000000000057e+00	-3.099284e-08	-1.347758e+01	-1.348758e-11
-7.310000000000057e+00	-3.098815e-08	-1.347758e+01	-1.348758e-11
-7.300000000000058e+00	-3.098346e-08	-1.347758e+01	-1.348758e-11
-7.290000000000058e+00	-3.097877e-08	-1.347758e+01	-1.348758e-11
-7.280000000000058e+00	-3.097408e-08	-1.347758e+01	-1.348758e-11
-7.270000000000058e+00	-3.096939e-08	-1.347757e+01	-1.348757e-11
-7.260000000000058e+00	-3.096470e-08	-1.347757e+01	-1.348757e-11
-7.250000000000059e+00	-3.096001e-08	-1.347757e+01	-1.348757e-11
-7.240000000000059e+00	-3.095532e-08	-1.347757e+01	-1.348757e-11
-7.230000000000059e+00	-3.095062e-08	-1.347757e+01	-1.348757e-11
-7.220000000000059e+00	-3.094593e-08	-1.347757e+01	-1.348757e-11
-7.210000000000059e+00	-3.094124e-08	-1.347757e+01	-1.348757e-11
-7.200000000000060e+00	-3.093655e-08	-1.347757e+01	-1.348757e-11
-7.190000000000060e+00	-3.093186e-08	-1.347756e+01	-1.348756e-11
-7.180000000000060e+00	-3.092717e-08	-1.347756e+01	-1.348756e-11
-7.170000000000060e+00	-3.092248e-08	-1.347756e+01	-1.348756e-11
-7.160000000000061e+00	-3.091779e-08	-1.347756e+01	-1.348756e-11
-7.150000000000061e+00	-3.091310e-08	-1.347756e+01	-1.348756e-11
-7.140000000000061e+00	-3.090841e-08	-1.347756e+01	-1.348756e-11
-7.130000000000061e+00	-3.090372e-08	-1.347756e+01	-1.348756e-11
-7.120000000000061e+00	-3.089903e-08	-1.347756e+01	-1.348756e-11
-7.110000000000062e+00	-3.089433e-08	-1.347755e+01	-1.348755e-11
-7.100000000000062e+00	-3.088964e-08	-1.347755e+01	-1.348755e-11
-7.090000000000062e+00	-3.088495e-08	-1.347755e+01	-1.348755e-11
-7.080000000000062e+00	-3.088026e-08	-1.347755e+01	-1.348755e-11
-7.070000000000062e+00	-3.087557e-08	-1.347755e+01	-1.348755e-11
-7.060000000000063e+00	-3.087088e-08	-1.347755e+01	-1.348755e-11
-7.050000000000063e+00	-3.086619e-08	-1.347755e+01	-1.348755e-11
-7.040000000000063e+00	-3.086150e-08	-1.347755e+01	-1.348755e-11
-7.030000000000063e+00	-3.085681e-08	-1.347754e+01	-1.348754e-11
-7.020000000000064e+00	-3.085212e-08	-1.347754e+01	-1.348754e-11
-7.010000000000064e+00	-3.084743e-08	-1.347754e+01	-1.348754e-11
-7.000000000000064e+00	-3.084273e-08	-1.347754e+01	-1.348754e-11
-6.990000000000064e+00	-3.083805e-08	-1.347754e+01	-1.348754e-11
-6.980000000000064e+00	-3.083336e-08	-1.347754e+01	-1.348754e-11
-6.970000000000065e+00	-3.082866e-08	-1.347754e+01	-1.348754e-11
-6.960000000000065e+00	-3.082397e-08	-1.347754e+01	-1.348754e-11
-6.950000000000065e+00	-3.081928e-08	-1.347754e+01	-1.348753e-11
-6.940000000000065e+00	-3.081459e-08	-1.347753e+01	-1.348753e-11
